TIME,Vin,Vout
0.000000000000,0.000000000000,-0.005002170000
0.000000398757,0.012527000000,-0.005000120000
0.000001009382,0.031709800000,-0.004999630000
0.000002000740,0.062853500000,-0.004997110000
0.000002673131,0.083972400000,-0.004993290000
0.000003501978,0.110005000000,-0.004985210000
0.000004650191,0.146069000000,-0.004965830000
0.000006241931,0.196032000000,-0.004918140000
0.000008404331,0.263907000000,-0.004801890000
0.000011353364,0.356374000000,-0.004516640000
0.000015341970,0.481236000000,-0.003824060000
0.000020760757,0.650370000000,-0.002143140000
0.000028117931,0.878763000000,0.001904660000
0.000038155432,1.187240000000,0.011602800000
0.000049763746,1.538020000000,0.030149800000
0.000061095511,1.872580000000,0.057054600000
0.000075626632,2.287480000000,0.105962000000
0.000092124604,2.735250000000,0.182711000000
0.000111542258,3.224300000000,0.303098000000
0.000135368986,3.758210000000,0.494571000000
0.000168210786,4.354180000000,0.829314000000
0.000201544120,4.770050000000,1.235740000000
0.000234877453,4.977450000000,1.684800000000
0.000268210786,4.967300000000,2.147370000000
0.000301544120,4.740070000000,2.592390000000
0.000334877453,4.305670000000,2.989220000000
0.000368210786,3.683090000000,3.309730000000
0.000401544120,2.899540000000,3.529920000000
0.000434877453,1.989270000000,3.631330000000
0.000468210786,0.992060000000,3.601850000000
0.000501544120,-0.048509200000,3.436300000000
0.000534877453,-1.086960000000,3.136580000000
0.000568210786,-2.077900000000,2.711500000000
0.000601544120,-2.978030000000,2.176200000000
0.000634877453,-3.748010000000,1.551430000000
0.000668210786,-4.354180000000,0.862481000000
0.000701544120,-4.770050000000,0.137969000000
0.000734877453,-4.977450000000,-0.591526000000
0.000768210786,-4.967300000000,-1.294880000000
0.000801544120,-4.740070000000,-1.941860000000
0.000834877453,-4.305670000000,-2.504520000000
0.000868210786,-3.683090000000,-2.958450000000
0.000901544120,-2.899540000000,-3.283890000000
0.000934877453,-1.989270000000,-3.466650000000
0.000968210786,-0.992060000000,-3.498710000000
0.001001544119,0.048509200000,-3.378630000000
0.001034877453,1.086960000000,-3.111590000000
0.001068210786,2.077900000000,-2.709200000000
0.001101544119,2.978030000000,-2.188980000000
0.001134877453,3.748010000000,-1.573590000000
0.001168210786,4.354180000000,-0.889878000000
0.001201544119,4.770050000000,-0.167679000000
0.001234877453,4.977450000000,0.561487000000
0.001268210786,4.967300000000,1.265790000000
0.001301544119,4.740070000000,1.914470000000
0.001334877453,4.305670000000,2.479200000000
0.001368210786,3.683090000000,2.935330000000
0.001401544119,2.899540000000,3.262910000000
0.001434877453,1.989270000000,3.447660000000
0.001468210786,0.992060000000,3.481500000000
0.001501544119,-0.048509200000,3.362960000000
0.001534877453,-1.086960000000,3.097230000000
0.001568210786,-2.077900000000,2.695910000000
0.001601544119,-2.978030000000,2.176550000000
0.001634877453,-3.748010000000,1.561850000000
0.001668210786,-4.354180000000,0.878677000000
0.001701544119,-4.770050000000,0.156885000000
0.001734877453,-4.977450000000,-0.571978000000
0.001768210786,-4.967300000000,-1.276060000000
0.001801544119,-4.740070000000,-1.924580000000
0.001834877453,-4.305670000000,-2.489210000000
0.001868210786,-3.683090000000,-2.945270000000
0.001901544119,-2.899540000000,-3.272820000000
0.001934877453,-1.989270000000,-3.457550000000
0.001968210786,-0.992060000000,-3.491380000000
0.002001544119,0.048509200000,-3.372850000000
0.002034877453,1.086960000000,-3.107120000000
0.002068210786,2.077900000000,-2.705810000000
0.002101544119,2.978030000000,-2.186470000000
0.002134877453,3.748010000000,-1.571790000000
0.002168210786,4.354180000000,-0.888625000000
0.002201544119,4.770050000000,-0.166845000000
0.002234877453,4.977450000000,0.562008000000
0.002268210786,4.967300000000,1.266080000000
0.002301544119,4.740070000000,1.914600000000
0.002334877453,4.305670000000,2.479220000000
0.002368210786,3.683090000000,2.935280000000
0.002401544119,2.899540000000,3.262820000000
0.002434877453,1.989270000000,3.447550000000
0.002468210786,0.992060000000,3.481380000000
0.002501544119,-0.048509200000,3.362850000000
0.002534877453,-1.086960000000,3.097120000000
0.002568210786,-2.077900000000,2.695810000000
0.002601544119,-2.978030000000,2.176470000000
0.002634877453,-3.748010000000,1.561780000000
0.002668210786,-4.354180000000,0.878618000000
0.002701544119,-4.770050000000,0.156838000000
0.002734877453,-4.977450000000,-0.572016000000
0.002768210786,-4.967300000000,-1.276090000000
0.002801544119,-4.740070000000,-1.924610000000
0.002834877453,-4.305670000000,-2.489230000000
0.002868210786,-3.683090000000,-2.945280000000
0.002901544119,-2.899540000000,-3.272830000000
0.002934877453,-1.989270000000,-3.457550000000
0.002968210786,-0.992060000000,-3.491390000000
0.003001544119,0.048509200000,-3.372850000000
0.003034877453,1.086960000000,-3.107120000000
0.003068210786,2.077900000000,-2.705810000000
0.003101544119,2.978030000000,-2.186470000000
0.003134877453,3.748010000000,-1.571790000000
0.003168210786,4.354180000000,-0.888624000000
0.003201544119,4.770050000000,-0.166845000000
0.003234877453,4.977450000000,0.562008000000
0.003268210786,4.967300000000,1.266080000000
0.003301544119,4.740070000000,1.914600000000
0.003334877453,4.305670000000,2.479220000000
0.003368210786,3.683090000000,2.935280000000
0.003401544119,2.899540000000,3.262820000000
0.003434877453,1.989270000000,3.447550000000
0.003468210786,0.992060000000,3.481390000000
0.003501544119,-0.048509200000,3.362850000000
0.003534877453,-1.086960000000,3.097120000000
0.003568210786,-2.077900000000,2.695810000000
0.003601544119,-2.978030000000,2.176470000000
0.003634877453,-3.748010000000,1.561780000000
0.003668210786,-4.354180000000,0.878618000000
0.003701544119,-4.770050000000,0.156838000000
0.003734877453,-4.977450000000,-0.572016000000
0.003768210786,-4.967300000000,-1.276090000000
0.003801544119,-4.740070000000,-1.924610000000
0.003834877453,-4.305670000000,-2.489230000000
0.003868210786,-3.683090000000,-2.945280000000
0.003901544119,-2.899540000000,-3.272830000000
0.003934877453,-1.989270000000,-3.457550000000
0.003968210786,-0.992060000000,-3.491390000000
0.004001544119,0.048509200000,-3.372850000000
0.004034877453,1.086960000000,-3.107120000000
0.004068210786,2.077900000000,-2.705810000000
0.004101544119,2.978030000000,-2.186470000000
0.004134877453,3.748010000000,-1.571790000000
0.004168210786,4.354180000000,-0.888624000000
0.004201544119,4.770050000000,-0.166845000000
0.004234877453,4.977450000000,0.562008000000
0.004268210786,4.967300000000,1.266080000000
0.004301544119,4.740070000000,1.914600000000
0.004334877453,4.305670000000,2.479220000000
0.004368210786,3.683090000000,2.935280000000
0.004401544119,2.899540000000,3.262820000000
0.004434877453,1.989270000000,3.447550000000
0.004468210786,0.992060000000,3.481390000000
0.004501544119,-0.048509200000,3.362850000000
0.004534877453,-1.086960000000,3.097120000000
0.004568210786,-2.077900000000,2.695810000000
0.004601544119,-2.978030000000,2.176470000000
0.004634877453,-3.748010000000,1.561780000000
0.004668210786,-4.354180000000,0.878618000000
0.004701544119,-4.770050000000,0.156838000000
0.004734877453,-4.977450000000,-0.572016000000
0.004768210786,-4.967300000000,-1.276090000000
0.004801544119,-4.740070000000,-1.924610000000
0.004834877453,-4.305670000000,-2.489230000000
0.004868210786,-3.683090000000,-2.945280000000
0.004901544119,-2.899540000000,-3.272830000000
0.004934877453,-1.989270000000,-3.457550000000
0.004968210786,-0.992060000000,-3.491390000000
0.005001544119,0.048509200000,-3.372850000000
0.005034877453,1.086960000000,-3.107120000000
0.005068210786,2.077900000000,-2.705810000000
0.005101544119,2.978030000000,-2.186470000000
0.005134877453,3.748010000000,-1.571790000000
0.005168210786,4.354180000000,-0.888624000000
0.005201544119,4.770050000000,-0.166845000000
0.005234877453,4.977450000000,0.562008000000
0.005268210786,4.967300000000,1.266080000000
0.005301544119,4.740070000000,1.914600000000
0.005334877453,4.305670000000,2.479220000000
0.005368210786,3.683090000000,2.935280000000
0.005401544119,2.899540000000,3.262820000000
0.005434877453,1.989270000000,3.447550000000
0.005468210786,0.992060000000,3.481390000000
0.005501544119,-0.048509200000,3.362850000000
0.005534877453,-1.086960000000,3.097120000000
0.005568210786,-2.077900000000,2.695810000000
0.005601544119,-2.978030000000,2.176470000000
0.005634877453,-3.748010000000,1.561780000000
0.005668210786,-4.354180000000,0.878618000000
0.005701544119,-4.770050000000,0.156838000000
0.005734877453,-4.977450000000,-0.572016000000
0.005768210786,-4.967300000000,-1.276090000000
0.005801544119,-4.740070000000,-1.924610000000
0.005834877453,-4.305670000000,-2.489230000000
0.005868210786,-3.683090000000,-2.945280000000
0.005901544119,-2.899540000000,-3.272830000000
0.005934877453,-1.989270000000,-3.457550000000
0.005968210786,-0.992060000000,-3.491390000000
0.006001544119,0.048509200000,-3.372850000000
0.006034877453,1.086960000000,-3.107120000000
0.006068210786,2.077900000000,-2.705810000000
0.006101544119,2.978030000000,-2.186470000000
0.006134877453,3.748010000000,-1.571790000000
0.006168210786,4.354180000000,-0.888624000000
0.006201544119,4.770050000000,-0.166845000000
0.006234877453,4.977450000000,0.562008000000
0.006268210786,4.967300000000,1.266080000000
0.006301544119,4.740070000000,1.914600000000
0.006334877453,4.305670000000,2.479220000000
0.006368210786,3.683090000000,2.935280000000
0.006401544119,2.899540000000,3.262820000000
0.006434877453,1.989270000000,3.447550000000
0.006468210786,0.992060000000,3.481390000000
0.006501544119,-0.048509200000,3.362850000000
0.006534877453,-1.086960000000,3.097120000000
0.006568210786,-2.077900000000,2.695810000000
0.006601544119,-2.978030000000,2.176470000000
0.006634877453,-3.748010000000,1.561780000000
0.006668210786,-4.354180000000,0.878618000000
0.006701544119,-4.770050000000,0.156838000000
0.006734877453,-4.977450000000,-0.572016000000
0.006768210786,-4.967300000000,-1.276090000000
0.006801544119,-4.740070000000,-1.924610000000
0.006834877453,-4.305670000000,-2.489230000000
0.006868210786,-3.683090000000,-2.945280000000
0.006901544119,-2.899540000000,-3.272830000000
0.006934877453,-1.989270000000,-3.457550000000
0.006968210786,-0.992060000000,-3.491390000000
0.007001544119,0.048509200000,-3.372850000000
0.007034877453,1.086960000000,-3.107120000000
0.007068210786,2.077900000000,-2.705810000000
0.007101544119,2.978030000000,-2.186470000000
0.007134877453,3.748010000000,-1.571790000000
0.007168210786,4.354180000000,-0.888624000000
0.007201544119,4.770050000000,-0.166845000000
0.007234877453,4.977450000000,0.562008000000
0.007268210786,4.967300000000,1.266080000000
0.007301544119,4.740070000000,1.914600000000
0.007334877453,4.305670000000,2.479220000000
0.007368210786,3.683090000000,2.935280000000
0.007401544119,2.899540000000,3.262820000000
0.007434877453,1.989270000000,3.447550000000
0.007468210786,0.992060000000,3.481390000000
0.007501544119,-0.048509200000,3.362850000000
0.007534877453,-1.086960000000,3.097120000000
0.007568210786,-2.077900000000,2.695810000000
0.007601544119,-2.978030000000,2.176470000000
0.007634877453,-3.748010000000,1.561780000000
0.007668210786,-4.354180000000,0.878618000000
0.007701544119,-4.770050000000,0.156838000000
0.007734877453,-4.977450000000,-0.572016000000
0.007768210786,-4.967300000000,-1.276090000000
0.007801544119,-4.740070000000,-1.924610000000
0.007834877453,-4.305670000000,-2.489230000000
0.007868210786,-3.683090000000,-2.945280000000
0.007901544119,-2.899540000000,-3.272830000000
0.007934877453,-1.989270000000,-3.457550000000
0.007968210786,-0.992060000000,-3.491390000000
0.008001544119,0.048509200000,-3.372850000000
0.008034877453,1.086960000000,-3.107120000000
0.008068210786,2.077900000000,-2.705810000000
0.008101544119,2.978030000000,-2.186470000000
0.008134877453,3.748010000000,-1.571790000000
0.008168210786,4.354180000000,-0.888624000000
0.008201544119,4.770050000000,-0.166845000000
0.008234877453,4.977450000000,0.562008000000
0.008268210786,4.967300000000,1.266080000000
0.008301544119,4.740070000000,1.914600000000
0.008334877453,4.305670000000,2.479220000000
0.008368210786,3.683090000000,2.935280000000
0.008401544119,2.899540000000,3.262820000000
0.008434877453,1.989270000000,3.447550000000
0.008468210786,0.992060000000,3.481390000000
0.008501544119,-0.048509200000,3.362850000000
0.008534877453,-1.086960000000,3.097120000000
0.008568210786,-2.077900000000,2.695810000000
0.008601544119,-2.978030000000,2.176470000000
0.008634877453,-3.748010000000,1.561780000000
0.008668210786,-4.354180000000,0.878618000000
0.008701544119,-4.770050000000,0.156838000000
0.008734877453,-4.977450000000,-0.572016000000
0.008768210786,-4.967300000000,-1.276090000000
0.008801544119,-4.740070000000,-1.924610000000
0.008834877453,-4.305670000000,-2.489230000000
0.008868210786,-3.683090000000,-2.945280000000
0.008901544119,-2.899540000000,-3.272830000000
0.008934877453,-1.989270000000,-3.457550000000
0.008968210786,-0.992060000000,-3.491390000000
0.009001544119,0.048509200000,-3.372850000000
0.009034877453,1.086960000000,-3.107120000000
0.009068210786,2.077900000000,-2.705810000000
0.009101544119,2.978030000000,-2.186470000000
0.009134877453,3.748010000000,-1.571790000000
0.009168210786,4.354180000000,-0.888624000000
0.009201544119,4.770050000000,-0.166845000000
0.009234877453,4.977450000000,0.562008000000
0.009268210786,4.967300000000,1.266080000000
0.009301544119,4.740070000000,1.914600000000
0.009334877453,4.305670000000,2.479220000000
0.009368210786,3.683090000000,2.935280000000
0.009401544119,2.899540000000,3.262820000000
0.009434877453,1.989270000000,3.447550000000
0.009468210786,0.992060000000,3.481390000000
0.009501544119,-0.048509200000,3.362850000000
0.009534877453,-1.086960000000,3.097120000000
0.009568210786,-2.077900000000,2.695810000000
0.009601544119,-2.978030000000,2.176470000000
0.009634877453,-3.748010000000,1.561780000000
0.009668210786,-4.354180000000,0.878618000000
0.009701544119,-4.770050000000,0.156838000000
0.009734877453,-4.977450000000,-0.572016000000
0.009768210786,-4.967300000000,-1.276090000000
0.009801544119,-4.740070000000,-1.924610000000
0.009834877453,-4.305670000000,-2.489230000000
0.009868210786,-3.683090000000,-2.945280000000
0.009901544119,-2.899540000000,-3.272830000000
0.009934877453,-1.989270000000,-3.457550000000
0.009968210786,-0.992060000000,-3.491390000000
0.010000000000,0.000000000000,-3.381590000000
